T2F58 1030:482 SEGGER J-Link V6.40 Log File (0001ms, 14096ms total)
T2F58 1030:482 DLL Compiled: Oct 26 2018 15:06:02 (0001ms, 14096ms total)
T2F58 1030:482 Logging started @ 2021-02-09 17:50 (0001ms, 14096ms total)
T2F58 1030:483 JLINK_SetWarnOutHandler(...) (0000ms, 14096ms total)
T2F58 1030:483 JLINK_OpenEx(...)
Firmware: J-Link ARM-OB STM32 compiled Aug 22 2012 19:52:04
Hardware: V7.00
S/N: 305760245
Feature(s): RDI,FlashDL,FlashBP,JFlash,GDBFull
TELNET listener socket opened on port 19021Device "CORTEX-M4" selected.WEBSRV 
Starting webserver (0016ms, 14112ms total)
T2F58 1030:483 WEBSRV Webserver running on local port 19080 (0017ms, 14113ms total)
T2F58 1030:483   returns O.K. (0017ms, 14113ms total)
T2F58 1030:500 JLINK_GetEmuCaps()  returns 0x88EA5833 (0000ms, 14113ms total)
T2F58 1030:500 JLINK_TIF_GetAvailable(...) (0000ms, 14113ms total)
T2F58 1030:500 JLINK_SetErrorOutHandler(...) (0000ms, 14113ms total)
T2F58 1030:500 JLINK_ExecCommand("ProjectFile = "C:\Users\Wings\Desktop\Workspace\Keil\WPT_Transmission\MDK-ARM\JLinkSettings.ini"", ...). Device "CORTEX-M4" selected.  returns 0x00 (0007ms, 14120ms total)
T2F58 1030:513 JLINK_ExecCommand("Device = STM32G474CEUx", ...). Device "CORTEX-M4" selected.  returns 0x00 (0006ms, 14126ms total)
T2F58 1030:519 JLINK_ExecCommand("DisableConnectionTimeout", ...).   returns 0x01 (0000ms, 14126ms total)
T2F58 1030:519 JLINK_GetHardwareVersion()  returns 0x11170 (0000ms, 14126ms total)
T2F58 1030:519 JLINK_GetDLLVersion()  returns 64000 (0000ms, 14126ms total)
T2F58 1030:519 JLINK_GetFirmwareString(...) (0000ms, 14126ms total)
T2F58 1030:526 JLINK_GetDLLVersion()  returns 64000 (0000ms, 14126ms total)
T2F58 1030:526 JLINK_GetCompileDateTime() (0000ms, 14126ms total)
T2F58 1030:528 JLINK_GetFirmwareString(...) (0000ms, 14126ms total)
T2F58 1030:530 JLINK_GetHardwareVersion()  returns 0x11170 (0000ms, 14126ms total)
T2F58 1030:538 JLINK_TIF_Select(JLINKARM_TIF_SWD)  returns 0x00 (0001ms, 14127ms total)
T2F58 1030:539 JLINK_SetSpeed(5000) (0000ms, 14127ms total)
T2F58 1030:539 JLINK_GetId() >0x10B TIF>Found SW-DP with ID 0x2BA01477 >0x0D TIF> >0x28 TIF> >0x0D TIF> >0x28 TIF> >0x0D TIF> >0x28 TIF> >0x0D TIF> >0x28 TIF> >0x0D TIF> >0x21 TIF> >0x0D TIF> >0x28 TIF>Scanning AP map to find all available APs >0x0D TIF> >0x28 TIF> >0x0D TIF> >0x21 TIF> >0x0D TIF> >0x21 TIF> >0x0D TIF> >0x28 TIF> >0x0D TIF> >0x21 TIF> >0x0D TIF> >0x21 TIF>AP[1]: Stopped AP scan as end of AP map has been reachedAP[0]: AHB-AP (IDR: 0x24770011)Iterating through AP map to find AHB-AP to use
 >0x42 TIF> >0x28 TIF> >0x0D TIF> >0x28 TIF> >0x0D TIF> >0x21 TIF> >0x0D TIF> >0x21 TIF> >0x42 TIF> >0x28 TIF> >0x0D TIF> >0x28 TIF> >0x0D TIF> >0x28 TIF> >0x0D TIF> >0x21 TIF> >0x0D TIF> >0x21 TIF>AP[0]: Core foundAP[0]: AHB-AP ROM base: 0xE00FF000 >0x0D TIF> >0x28 TIF> >0x0D TIF> >0x28 TIF> >0x0D TIF> >0x28 TIF> >0x0D TIF> >0x21 TIF> >0x0D TIF> >0x21 TIF>CPUID register: 0x410FC241. Implementer code: 0x41 (ARM)Found Cortex-M4 r0p1, Little endian. -- Max. mem block: 0x00002C18
 -- CPU_ReadMem(4 bytes @ 0xE000EDF0) -- CPU_WriteMem(4 bytes @ 0xE000EDF0) -- CPU_ReadMem(4 bytes @ 0xE0002000)FPUnit: 6 code (BP) slots and 2 literal slots -- CPU_ReadMem(4 bytes @ 0xE000EDFC) -- CPU_WriteMem(4 bytes @ 0xE000EDFC) -- CPU_ReadMem(4 bytes @ 0xE0001000) -- CPU_WriteMem(4 bytes @ 0xE0001000) -- CPU_ReadMem(4 bytes @ 0xE000ED88) -- CPU_WriteMem(4 bytes @ 0xE000ED88) -- CPU_ReadMem(4 bytes @ 0xE000ED88) -- CPU_WriteMem(4 bytes @ 0xE000ED88)CoreSight components:ROMTbl[0] @ E00FF000
 -- CPU_ReadMem(16 bytes @ 0xE00FF000) -- CPU_ReadMem(16 bytes @ 0xE000EFF0) -- CPU_ReadMem(16 bytes @ 0xE000EFE0)ROMTbl[0][0]: E000E000, CID: B105E00D, PID: 000BB00C SCS-M7 -- CPU_ReadMem(16 bytes @ 0xE0001FF0) -- CPU_ReadMem(16 bytes @ 0xE0001FE0)ROMTbl[0][1]: E0001000, CID: B105E00D, PID: 003BB002 DWT -- CPU_ReadMem(16 bytes @ 0xE0002FF0) -- CPU_ReadMem(16 bytes @ 0xE0002FE0)ROMTbl[0][2]: E0002000, CID: B105E00D, PID: 002BB003 FPB -- CPU_ReadMem(16 bytes @ 0xE0000FF0)
 -- CPU_ReadMem(16 bytes @ 0xE0000FE0)ROMTbl[0][3]: E0000000, CID: B105E00D, PID: 003BB001 ITM -- CPU_ReadMem(16 bytes @ 0xE00FF010) -- CPU_ReadMem(16 bytes @ 0xE0040FF0) -- CPU_ReadMem(16 bytes @ 0xE0040FE0)ROMTbl[0][4]: E0040000, CID: B105900D, PID: 000BB9A1 TPIU -- CPU_ReadMem(16 bytes @ 0xE0041FF0) -- CPU_ReadMem(16 bytes @ 0xE0041FE0)ROMTbl[0][5]: E0041000, CID: B105900D, PID: 000BB925 ETM >0x0D TIF> >0x21 TIF>  returns 0x2BA01477 (0170ms, 14297ms total)
T2F58 1030:709 JLINK_GetDLLVersion()  returns 64000 (0000ms, 14297ms total)
T2F58 1030:709 JLINK_CORE_GetFound()  returns 0xE0000FF (0000ms, 14297ms total)
T2F58 1030:709 JLINK_GetDebugInfo(0x100 = JLINKARM_ROM_TABLE_ADDR_INDEX) -- Value=0xE00FF000  returns 0x00 (0000ms, 14297ms total)
T2F58 1030:711 JLINK_GetDebugInfo(0x100 = JLINKARM_ROM_TABLE_ADDR_INDEX) -- Value=0xE00FF000  returns 0x00 (0000ms, 14297ms total)
T2F58 1030:711 JLINK_GetDebugInfo(0x101 = JLINKARM_DEBUG_INFO_ETM_ADDR_INDEX) -- Value=0xE0041000  returns 0x00 (0000ms, 14297ms total)
T2F58 1030:711 JLINK_ReadMemEx(0xE0041FD0, 0x0020 Bytes, ..., Flags = 0x02000004) -- CPU_ReadMem(32 bytes @ 0xE0041FD0) - Data: 04 00 00 00 00 00 00 00 00 00 00 00 00 00 00 00 ...  returns 0x20 (0001ms, 14298ms total)
T2F58 1030:712 JLINK_GetDebugInfo(0x102 = JLINKARM_DEBUG_INFO_MTB_ADDR_INDEX) -- Value=0x00000000  returns 0x00 (0000ms, 14298ms total)
T2F58 1030:712 JLINK_GetDebugInfo(0x103 = JLINKARM_DEBUG_INFO_TPIU_ADDR_INDEX) -- Value=0xE0040000  returns 0x00 (0000ms, 14298ms total)
T2F58 1030:712 JLINK_GetDebugInfo(0x104 = JLINKARM_DEBUG_INFO_ITM_ADDR_INDEX) -- Value=0xE0000000  returns 0x00 (0000ms, 14298ms total)
T2F58 1030:712 JLINK_GetDebugInfo(0x105 = JLINKARM_DEBUG_INFO_DWT_ADDR_INDEX) -- Value=0xE0001000  returns 0x00 (0000ms, 14298ms total)
T2F58 1030:712 JLINK_GetDebugInfo(0x106 = JLINKARM_DEBUG_INFO_FPB_ADDR_INDEX) -- Value=0xE0002000  returns 0x00 (0000ms, 14298ms total)
T2F58 1030:712 JLINK_GetDebugInfo(0x107 = JLINKARM_DEBUG_INFO_NVIC_ADDR_INDEX) -- Value=0xE000E000  returns 0x00 (0000ms, 14298ms total)
T2F58 1030:712 JLINK_GetDebugInfo(0x10C = JLINKARM_DEBUG_INFO_DBG_ADDR_INDEX) -- Value=0xE000EDF0  returns 0x00 (0000ms, 14298ms total)
T2F58 1030:712 JLINK_GetDebugInfo(0x01 = Unknown) -- Value=0x00000001  returns 0x00 (0000ms, 14298ms total)
T2F58 1030:712 JLINK_ReadMemU32(0xE000ED00, 0x0001 Items, ...) -- CPU_ReadMem(4 bytes @ 0xE000ED00) - Data: 41 C2 0F 41  returns 1 (0001ms, 14299ms total)
T2F58 1030:713 JLINK_GetDebugInfo(0x10F = JLINKARM_DEBUG_INFO_HAS_CORTEX_M_SECURITY_EXT_INDEX) -- Value=0x00000000  returns 0x00 (0000ms, 14299ms total)
T2F58 1030:713 JLINK_SetResetType(JLINKARM_CM3_RESET_TYPE_NORMAL)  returns JLINKARM_CM3_RESET_TYPE_NORMAL (0000ms, 14299ms total)
T2F58 1030:713 JLINK_Reset() -- CPU is running -- CPU_WriteMem(4 bytes @ 0xE000EDF0) -- CPU is running -- CPU_WriteMem(4 bytes @ 0xE000EDFC)Reset: Halt core after reset via DEMCR.VC_CORERESET. >0x35 TIF>Reset: Reset device via AIRCR.SYSRESETREQ. -- CPU is running -- CPU_WriteMem(4 bytes @ 0xE000ED0C) >0x0D TIF> >0x28 TIF> -- CPU_ReadMem(4 bytes @ 0xE000EDF0) -- CPU_ReadMem(4 bytes @ 0xE000EDF0) -- CPU is running -- CPU_WriteMem(4 bytes @ 0xE000EDF0) -- CPU is running -- CPU_WriteMem(4 bytes @ 0xE000EDFC)
 -- CPU_ReadMem(4 bytes @ 0xE000EDF0) -- CPU_WriteMem(4 bytes @ 0xE0002000) -- CPU_ReadMem(4 bytes @ 0xE000EDFC) -- CPU_ReadMem(4 bytes @ 0xE0001000) (0074ms, 14373ms total)
T2F58 1030:787 JLINK_Halt()  returns 0x00 (0000ms, 14373ms total)
T2F58 1030:787 JLINK_ReadMemU32(0xE000EDF0, 0x0001 Items, ...) -- CPU_ReadMem(4 bytes @ 0xE000EDF0) - Data: 03 00 03 00  returns 1 (0001ms, 14374ms total)
T2F58 1030:788 JLINK_WriteU32(0xE000EDF0, 0xA05F0003) -- CPU_WriteMem(4 bytes @ 0xE000EDF0)  returns 0 (0000ms, 14374ms total)
T2F58 1030:788 JLINK_WriteU32(0xE000EDFC, 0x01000000) -- CPU_WriteMem(4 bytes @ 0xE000EDFC)  returns 0 (0001ms, 14375ms total)
T2F58 1030:800 JLINK_GetHWStatus(...)  returns 0x00 (0000ms, 14375ms total)
T2F58 1030:806 JLINK_GetNumBPUnits(Type = 0xFFFFFF00)  returns 0x06 (0000ms, 14375ms total)
T2F58 1030:806 JLINK_GetNumBPUnits(Type = 0xF0)  returns 0x2000 (0000ms, 14375ms total)
T2F58 1030:806 JLINK_GetNumWPUnits()  returns 0x04 (0000ms, 14375ms total)
T2F58 1030:812 JLINK_GetSpeed()  returns 0xFA0 (0000ms, 14375ms total)
T2F58 1030:816 JLINK_ReadMemU32(0xE000E004, 0x0001 Items, ...) -- CPU_ReadMem(4 bytes @ 0xE000E004) - Data: 03 00 00 00  returns 1 (0001ms, 14376ms total)
T2F58 1030:817 JLINK_ReadMemU32(0xE000E004, 0x0001 Items, ...) -- CPU_ReadMem(4 bytes @ 0xE000E004) - Data: 03 00 00 00  returns 1 (0000ms, 14376ms total)
T2F58 1030:817 JLINK_WriteMemEx(0xE0001000, 0x001C Bytes, ..., Flags = 0x02000004) - Data: 01 00 00 00 00 00 00 00 00 00 00 00 00 00 00 00 ... -- CPU_WriteMem(28 bytes @ 0xE0001000)  returns 0x1C (0001ms, 14377ms total)
T2F58 1030:818 JLINK_Halt()  returns 0x00 (0000ms, 14377ms total)
T2F58 1030:818 JLINK_IsHalted()  returns TRUE (0000ms, 14377ms total)
T2F58 1030:820 JLINK_WriteMem(0x20000000, 0x01BC Bytes, ...) - Data: 00 BE 0A E0 0D 78 2D 06 68 40 08 24 40 00 00 D3 ... -- CPU_WriteMem(444 bytes @ 0x20000000)  returns 0x1BC (0006ms, 14383ms total)
T2F58 1030:826 JLINK_WriteReg(R0, 0x08000000)  returns 0x00 (0000ms, 14383ms total)
T2F58 1030:826 JLINK_WriteReg(R1, 0x0A21FE80)  returns 0x00 (0000ms, 14383ms total)
T2F58 1030:826 JLINK_WriteReg(R2, 0x00000001)  returns 0x00 (0000ms, 14383ms total)
T2F58 1030:826 JLINK_WriteReg(R3, 0x00000000)  returns 0x00 (0000ms, 14383ms total)
T2F58 1030:826 JLINK_WriteReg(R4, 0x00000000)  returns 0x00 (0000ms, 14383ms total)
T2F58 1030:826 JLINK_WriteReg(R5, 0x00000000)  returns 0x00 (0000ms, 14383ms total)
T2F58 1030:826 JLINK_WriteReg(R6, 0x00000000)  returns 0x00 (0000ms, 14383ms total)
T2F58 1030:826 JLINK_WriteReg(R7, 0x00000000)  returns 0x00 (0000ms, 14383ms total)
T2F58 1030:826 JLINK_WriteReg(R8, 0x00000000)  returns 0x00 (0000ms, 14383ms total)
T2F58 1030:826 JLINK_WriteReg(R9, 0x200001B8)  returns 0x00 (0000ms, 14383ms total)
T2F58 1030:826 JLINK_WriteReg(R10, 0x00000000)  returns 0x00 (0000ms, 14383ms total)
T2F58 1030:826 JLINK_WriteReg(R11, 0x00000000)  returns 0x00 (0000ms, 14383ms total)
T2F58 1030:826 JLINK_WriteReg(R12, 0x00000000)  returns 0x00 (0000ms, 14383ms total)
T2F58 1030:826 JLINK_WriteReg(R13 (SP), 0x20001000)  returns 0x00 (0000ms, 14383ms total)
T2F58 1030:826 JLINK_WriteReg(R14, 0x20000001)  returns 0x00 (0000ms, 14383ms total)
T2F58 1030:826 JLINK_WriteReg(R15 (PC), 0x20000020)  returns 0x00 (0000ms, 14383ms total)
T2F58 1030:826 JLINK_WriteReg(XPSR, 0x01000000)  returns 0x00 (0000ms, 14383ms total)
T2F58 1030:826 JLINK_WriteReg(MSP, 0x20001000)  returns 0x00 (0000ms, 14383ms total)
T2F58 1030:826 JLINK_WriteReg(PSP, 0x20001000)  returns 0x00 (0000ms, 14383ms total)
T2F58 1030:826 JLINK_WriteReg(CFBP, 0x00000000)  returns 0x00 (0000ms, 14383ms total)
T2F58 1030:826 JLINK_SetBPEx(Addr = 0x20000000, Type = 0xFFFFFFF2) -- CPU_ReadMem(4 bytes @ 0x20000000) -- CPU_WriteMem(4 bytes @ 0x20000000) -- CPU_ReadMem(4 bytes @ 0x20000000) -- CPU_WriteMem(4 bytes @ 0x20000000) -- CPU_ReadMem(2 bytes @ 0x20000000)  returns 0x00000001 (0003ms, 14386ms total)
T2F58 1030:829 JLINK_Go() -- CPU_WriteMem(2 bytes @ 0x20000000) -- CPU_ReadMem(4 bytes @ 0xE0001000) -- CPU_WriteMem(4 bytes @ 0xE0002008) -- CPU_WriteMem(4 bytes @ 0xE000200C) -- CPU_WriteMem(4 bytes @ 0xE0002010) -- CPU_WriteMem(4 bytes @ 0xE0002014) -- CPU_WriteMem(4 bytes @ 0xE0002018) -- CPU_WriteMem(4 bytes @ 0xE000201C) -- CPU_WriteMem(4 bytes @ 0xE0001004) (0006ms, 14392ms total)
T2F58 1030:835 JLINK_IsHalted() -- CPU_ReadMem(2 bytes @ 0x20000000)  returns TRUE (0004ms, 14396ms total)
T2F58 1030:839 JLINK_ReadReg(R15 (PC))  returns 0x20000000 (0000ms, 14392ms total)
T2F58 1030:839 JLINK_ClrBPEx(BPHandle = 0x00000001)  returns 0x00 (0000ms, 14392ms total)
T2F58 1030:839 JLINK_ReadReg(R0)  returns 0x00000000 (0000ms, 14392ms total)
T2F58 1030:839 JLINK_WriteReg(R0, 0x08000000)  returns 0x00 (0000ms, 14392ms total)
T2F58 1030:839 JLINK_WriteReg(R1, 0x0A21FE80)  returns 0x00 (0000ms, 14392ms total)
T2F58 1030:839 JLINK_WriteReg(R2, 0x00000001)  returns 0x00 (0000ms, 14392ms total)
T2F58 1030:839 JLINK_WriteReg(R3, 0x00000000)  returns 0x00 (0000ms, 14392ms total)
T2F58 1030:839 JLINK_WriteReg(R4, 0x00000000)  returns 0x00 (0000ms, 14392ms total)
T2F58 1030:839 JLINK_WriteReg(R5, 0x00000000)  returns 0x00 (0000ms, 14392ms total)
T2F58 1030:839 JLINK_WriteReg(R6, 0x00000000)  returns 0x00 (0000ms, 14392ms total)
T2F58 1030:839 JLINK_WriteReg(R7, 0x00000000)  returns 0x00 (0000ms, 14392ms total)
T2F58 1030:839 JLINK_WriteReg(R8, 0x00000000)  returns 0x00 (0000ms, 14392ms total)
T2F58 1030:839 JLINK_WriteReg(R9, 0x200001B8)  returns 0x00 (0000ms, 14392ms total)
T2F58 1030:839 JLINK_WriteReg(R10, 0x00000000)  returns 0x00 (0000ms, 14392ms total)
T2F58 1030:839 JLINK_WriteReg(R11, 0x00000000)  returns 0x00 (0000ms, 14392ms total)
T2F58 1030:839 JLINK_WriteReg(R12, 0x00000000)  returns 0x00 (0000ms, 14392ms total)
T2F58 1030:839 JLINK_WriteReg(R13 (SP), 0x20001000)  returns 0x00 (0000ms, 14392ms total)
T2F58 1030:839 JLINK_WriteReg(R14, 0x20000001)  returns 0x00 (0000ms, 14392ms total)
T2F58 1030:839 JLINK_WriteReg(R15 (PC), 0x20000056)  returns 0x00 (0000ms, 14392ms total)
T2F58 1030:839 JLINK_WriteReg(XPSR, 0x01000000)  returns 0x00 (0000ms, 14392ms total)
T2F58 1030:839 JLINK_WriteReg(MSP, 0x20001000)  returns 0x00 (0000ms, 14392ms total)
T2F58 1030:839 JLINK_WriteReg(PSP, 0x20001000)  returns 0x00 (0000ms, 14392ms total)
T2F58 1030:839 JLINK_WriteReg(CFBP, 0x00000000)  returns 0x00 (0000ms, 14392ms total)
T2F58 1030:839 JLINK_SetBPEx(Addr = 0x20000000, Type = 0xFFFFFFF2)  returns 0x00000002 (0000ms, 14392ms total)
T2F58 1030:839 JLINK_Go() -- CPU_ReadMem(4 bytes @ 0xE0001000) (0002ms, 14394ms total)
T2F58 1030:841 JLINK_IsHalted()  returns FALSE (0001ms, 14395ms total)
T2F58 1030:899 JLINK_IsHalted() -- CPU_ReadMem(2 bytes @ 0x20000000)  returns TRUE (0003ms, 14397ms total)
T2F58 1030:902 JLINK_ReadReg(R15 (PC))  returns 0x20000000 (0000ms, 14394ms total)
T2F58 1030:902 JLINK_ClrBPEx(BPHandle = 0x00000002)  returns 0x00 (0000ms, 14394ms total)
T2F58 1030:902 JLINK_ReadReg(R0)  returns 0x00000000 (0000ms, 14394ms total)
T2F58 1030:956 JLINK_WriteReg(R0, 0x00000001)  returns 0x00 (0000ms, 14394ms total)
T2F58 1030:956 JLINK_WriteReg(R1, 0x0A21FE80)  returns 0x00 (0000ms, 14394ms total)
T2F58 1030:956 JLINK_WriteReg(R2, 0x00000001)  returns 0x00 (0000ms, 14394ms total)
T2F58 1030:956 JLINK_WriteReg(R3, 0x00000000)  returns 0x00 (0000ms, 14394ms total)
T2F58 1030:956 JLINK_WriteReg(R4, 0x00000000)  returns 0x00 (0000ms, 14394ms total)
T2F58 1030:956 JLINK_WriteReg(R5, 0x00000000)  returns 0x00 (0000ms, 14394ms total)
T2F58 1030:956 JLINK_WriteReg(R6, 0x00000000)  returns 0x00 (0000ms, 14394ms total)
T2F58 1030:956 JLINK_WriteReg(R7, 0x00000000)  returns 0x00 (0000ms, 14394ms total)
T2F58 1030:956 JLINK_WriteReg(R8, 0x00000000)  returns 0x00 (0000ms, 14394ms total)
T2F58 1030:956 JLINK_WriteReg(R9, 0x200001B8)  returns 0x00 (0000ms, 14394ms total)
T2F58 1030:956 JLINK_WriteReg(R10, 0x00000000)  returns 0x00 (0000ms, 14394ms total)
T2F58 1030:956 JLINK_WriteReg(R11, 0x00000000)  returns 0x00 (0000ms, 14394ms total)
T2F58 1030:956 JLINK_WriteReg(R12, 0x00000000)  returns 0x00 (0000ms, 14394ms total)
T2F58 1030:956 JLINK_WriteReg(R13 (SP), 0x20001000)  returns 0x00 (0000ms, 14394ms total)
T2F58 1030:956 JLINK_WriteReg(R14, 0x20000001)  returns 0x00 (0000ms, 14394ms total)
T2F58 1030:956 JLINK_WriteReg(R15 (PC), 0x2000003E)  returns 0x00 (0000ms, 14394ms total)
T2F58 1030:956 JLINK_WriteReg(XPSR, 0x01000000)  returns 0x00 (0000ms, 14394ms total)
T2F58 1030:956 JLINK_WriteReg(MSP, 0x20001000)  returns 0x00 (0000ms, 14394ms total)
T2F58 1030:956 JLINK_WriteReg(PSP, 0x20001000)  returns 0x00 (0000ms, 14394ms total)
T2F58 1030:956 JLINK_WriteReg(CFBP, 0x00000000)  returns 0x00 (0000ms, 14394ms total)
T2F58 1030:956 JLINK_SetBPEx(Addr = 0x20000000, Type = 0xFFFFFFF2)  returns 0x00000003 (0000ms, 14394ms total)
T2F58 1030:956 JLINK_Go() -- CPU_ReadMem(4 bytes @ 0xE0001000) (0002ms, 14396ms total)
T2F58 1030:958 JLINK_IsHalted() -- CPU_ReadMem(2 bytes @ 0x20000000)  returns TRUE (0004ms, 14400ms total)
T2F58 1030:962 JLINK_ReadReg(R15 (PC))  returns 0x20000000 (0000ms, 14396ms total)
T2F58 1030:962 JLINK_ClrBPEx(BPHandle = 0x00000003)  returns 0x00 (0000ms, 14396ms total)
T2F58 1030:962 JLINK_ReadReg(R0)  returns 0x00000000 (0000ms, 14396ms total)
T2F58 1030:966 JLINK_WriteMem(0x20000000, 0x01BC Bytes, ...) - Data: 00 BE 0A E0 0D 78 2D 06 68 40 08 24 40 00 00 D3 ... -- CPU_WriteMem(444 bytes @ 0x20000000)  returns 0x1BC (0006ms, 14402ms total)
T2F58 1030:972 JLINK_WriteReg(R0, 0x08000000)  returns 0x00 (0000ms, 14402ms total)
T2F58 1030:972 JLINK_WriteReg(R1, 0x0A21FE80)  returns 0x00 (0000ms, 14402ms total)
T2F58 1030:972 JLINK_WriteReg(R2, 0x00000002)  returns 0x00 (0000ms, 14402ms total)
T2F58 1030:972 JLINK_WriteReg(R3, 0x00000000)  returns 0x00 (0000ms, 14402ms total)
T2F58 1030:972 JLINK_WriteReg(R4, 0x00000000)  returns 0x00 (0000ms, 14402ms total)
T2F58 1030:972 JLINK_WriteReg(R5, 0x00000000)  returns 0x00 (0000ms, 14402ms total)
T2F58 1030:972 JLINK_WriteReg(R6, 0x00000000)  returns 0x00 (0000ms, 14402ms total)
T2F58 1030:972 JLINK_WriteReg(R7, 0x00000000)  returns 0x00 (0000ms, 14402ms total)
T2F58 1030:972 JLINK_WriteReg(R8, 0x00000000)  returns 0x00 (0000ms, 14402ms total)
T2F58 1030:972 JLINK_WriteReg(R9, 0x200001B8)  returns 0x00 (0000ms, 14402ms total)
T2F58 1030:972 JLINK_WriteReg(R10, 0x00000000)  returns 0x00 (0000ms, 14402ms total)
T2F58 1030:972 JLINK_WriteReg(R11, 0x00000000)  returns 0x00 (0000ms, 14402ms total)
T2F58 1030:972 JLINK_WriteReg(R12, 0x00000000)  returns 0x00 (0000ms, 14402ms total)
T2F58 1030:972 JLINK_WriteReg(R13 (SP), 0x20001000)  returns 0x00 (0000ms, 14402ms total)
T2F58 1030:972 JLINK_WriteReg(R14, 0x20000001)  returns 0x00 (0000ms, 14402ms total)
T2F58 1030:972 JLINK_WriteReg(R15 (PC), 0x20000020)  returns 0x00 (0000ms, 14402ms total)
T2F58 1030:972 JLINK_WriteReg(XPSR, 0x01000000)  returns 0x00 (0000ms, 14402ms total)
T2F58 1030:972 JLINK_WriteReg(MSP, 0x20001000)  returns 0x00 (0000ms, 14402ms total)
T2F58 1030:972 JLINK_WriteReg(PSP, 0x20001000)  returns 0x00 (0000ms, 14402ms total)
T2F58 1030:972 JLINK_WriteReg(CFBP, 0x00000000)  returns 0x00 (0000ms, 14402ms total)
T2F58 1030:972 JLINK_SetBPEx(Addr = 0x20000000, Type = 0xFFFFFFF2) -- CPU_ReadMem(4 bytes @ 0x20000000) -- CPU_WriteMem(4 bytes @ 0x20000000) -- CPU_ReadMem(4 bytes @ 0x20000000) -- CPU_WriteMem(4 bytes @ 0x20000000) -- CPU_ReadMem(2 bytes @ 0x20000000)  returns 0x00000004 (0003ms, 14405ms total)
T2F58 1030:975 JLINK_Go() -- CPU_WriteMem(2 bytes @ 0x20000000) -- CPU_ReadMem(4 bytes @ 0xE0001000) (0004ms, 14409ms total)
T2F58 1030:979 JLINK_IsHalted() -- CPU_ReadMem(2 bytes @ 0x20000000)  returns TRUE (0003ms, 14412ms total)
T2F58 1030:983 JLINK_ReadReg(R15 (PC))  returns 0x20000000 (0000ms, 14409ms total)
T2F58 1030:983 JLINK_ClrBPEx(BPHandle = 0x00000004)  returns 0x00 (0000ms, 14409ms total)
T2F58 1030:983 JLINK_ReadReg(R0)  returns 0x00000000 (0000ms, 14409ms total)
T2F58 1030:983 JLINK_WriteMem(0x200001BC, 0x0244 Bytes, ...) - Data: 98 19 00 20 19 03 00 08 C7 46 00 08 D5 41 00 08 ... -- CPU_WriteMem(580 bytes @ 0x200001BC)  returns 0x244 (0008ms, 14417ms total)
T2F58 1030:991 JLINK_WriteMem(0x20000400, 0x01BC Bytes, ...) - Data: 30 C1 48 BF 0B 60 70 47 6E 29 00 F0 D9 81 70 29 ... -- CPU_WriteMem(444 bytes @ 0x20000400)  returns 0x1BC (0006ms, 14423ms total)
T2F58 1030:997 JLINK_WriteReg(R0, 0x08000000)  returns 0x00 (0000ms, 14423ms total)
T2F58 1030:997 JLINK_WriteReg(R1, 0x00000400)  returns 0x00 (0000ms, 14423ms total)
T2F58 1030:997 JLINK_WriteReg(R2, 0x200001BC)  returns 0x00 (0000ms, 14423ms total)
T2F58 1030:997 JLINK_WriteReg(R3, 0x00000000)  returns 0x00 (0000ms, 14423ms total)
T2F58 1030:997 JLINK_WriteReg(R4, 0x00000000)  returns 0x00 (0000ms, 14423ms total)
T2F58 1030:997 JLINK_WriteReg(R5, 0x00000000)  returns 0x00 (0000ms, 14423ms total)
T2F58 1030:997 JLINK_WriteReg(R6, 0x00000000)  returns 0x00 (0000ms, 14423ms total)
T2F58 1030:997 JLINK_WriteReg(R7, 0x00000000)  returns 0x00 (0000ms, 14423ms total)
T2F58 1030:997 JLINK_WriteReg(R8, 0x00000000)  returns 0x00 (0000ms, 14423ms total)
T2F58 1030:997 JLINK_WriteReg(R9, 0x200001B8)  returns 0x00 (0000ms, 14423ms total)
T2F58 1030:997 JLINK_WriteReg(R10, 0x00000000)  returns 0x00 (0000ms, 14423ms total)
T2F58 1030:997 JLINK_WriteReg(R11, 0x00000000)  returns 0x00 (0000ms, 14423ms total)
T2F58 1030:997 JLINK_WriteReg(R12, 0x00000000)  returns 0x00 (0000ms, 14423ms total)
T2F58 1030:997 JLINK_WriteReg(R13 (SP), 0x20001000)  returns 0x00 (0000ms, 14423ms total)
T2F58 1030:997 JLINK_WriteReg(R14, 0x20000001)  returns 0x00 (0000ms, 14423ms total)
T2F58 1030:997 JLINK_WriteReg(R15 (PC), 0x20000138)  returns 0x00 (0000ms, 14423ms total)
T2F58 1030:997 JLINK_WriteReg(XPSR, 0x01000000)  returns 0x00 (0000ms, 14423ms total)
T2F58 1030:997 JLINK_WriteReg(MSP, 0x20001000)  returns 0x00 (0000ms, 14423ms total)
T2F58 1030:997 JLINK_WriteReg(PSP, 0x20001000)  returns 0x00 (0000ms, 14423ms total)
T2F58 1030:997 JLINK_WriteReg(CFBP, 0x00000000)  returns 0x00 (0000ms, 14423ms total)
T2F58 1030:997 JLINK_SetBPEx(Addr = 0x20000000, Type = 0xFFFFFFF2)  returns 0x00000005 (0000ms, 14423ms total)
T2F58 1030:997 JLINK_Go() -- CPU_ReadMem(4 bytes @ 0xE0001000) (0002ms, 14425ms total)
T2F58 1031:000 JLINK_IsHalted()  returns FALSE (0000ms, 14425ms total)
T2F58 1031:010 JLINK_IsHalted()  returns FALSE (0000ms, 14425ms total)
T2F58 1031:012 JLINK_IsHalted() -- CPU_ReadMem(2 bytes @ 0x20000000)  returns TRUE (0004ms, 14429ms total)
T2F58 1031:016 JLINK_ReadReg(R15 (PC))  returns 0x20000000 (0000ms, 14425ms total)
T2F58 1031:016 JLINK_ClrBPEx(BPHandle = 0x00000005)  returns 0x00 (0000ms, 14425ms total)
T2F58 1031:016 JLINK_ReadReg(R0)  returns 0x00000000 (0000ms, 14425ms total)
T2F58 1031:016 JLINK_WriteMem(0x200001BC, 0x0244 Bytes, ...) - Data: 5B EA 06 0C 08 BF 4F F0 01 0B 19 EB 0B 09 48 EB ... -- CPU_WriteMem(580 bytes @ 0x200001BC)  returns 0x244 (0008ms, 14433ms total)
T2F58 1031:024 JLINK_WriteMem(0x20000400, 0x01BC Bytes, ...) - Data: 79 44 CD E9 03 10 11 46 68 46 00 F0 29 F9 0F B0 ... -- CPU_WriteMem(444 bytes @ 0x20000400)  returns 0x1BC (0006ms, 14439ms total)
T2F58 1031:030 JLINK_WriteReg(R0, 0x08000400)  returns 0x00 (0000ms, 14439ms total)
T2F58 1031:030 JLINK_WriteReg(R1, 0x00000400)  returns 0x00 (0000ms, 14439ms total)
T2F58 1031:030 JLINK_WriteReg(R2, 0x200001BC)  returns 0x00 (0000ms, 14439ms total)
T2F58 1031:030 JLINK_WriteReg(R3, 0x00000000)  returns 0x00 (0000ms, 14439ms total)
T2F58 1031:030 JLINK_WriteReg(R4, 0x00000000)  returns 0x00 (0000ms, 14439ms total)
T2F58 1031:030 JLINK_WriteReg(R5, 0x00000000)  returns 0x00 (0000ms, 14439ms total)
T2F58 1031:030 JLINK_WriteReg(R6, 0x00000000)  returns 0x00 (0000ms, 14439ms total)
T2F58 1031:030 JLINK_WriteReg(R7, 0x00000000)  returns 0x00 (0000ms, 14439ms total)
T2F58 1031:030 JLINK_WriteReg(R8, 0x00000000)  returns 0x00 (0000ms, 14439ms total)
T2F58 1031:030 JLINK_WriteReg(R9, 0x200001B8)  returns 0x00 (0000ms, 14439ms total)
T2F58 1031:030 JLINK_WriteReg(R10, 0x00000000)  returns 0x00 (0000ms, 14439ms total)
T2F58 1031:030 JLINK_WriteReg(R11, 0x00000000)  returns 0x00 (0000ms, 14439ms total)
T2F58 1031:030 JLINK_WriteReg(R12, 0x00000000)  returns 0x00 (0000ms, 14439ms total)
T2F58 1031:030 JLINK_WriteReg(R13 (SP), 0x20001000)  returns 0x00 (0000ms, 14439ms total)
T2F58 1031:030 JLINK_WriteReg(R14, 0x20000001)  returns 0x00 (0000ms, 14439ms total)
T2F58 1031:030 JLINK_WriteReg(R15 (PC), 0x20000138)  returns 0x00 (0000ms, 14439ms total)
T2F58 1031:030 JLINK_WriteReg(XPSR, 0x01000000)  returns 0x00 (0000ms, 14439ms total)
T2F58 1031:030 JLINK_WriteReg(MSP, 0x20001000)  returns 0x00 (0000ms, 14439ms total)
T2F58 1031:030 JLINK_WriteReg(PSP, 0x20001000)  returns 0x00 (0000ms, 14439ms total)
T2F58 1031:030 JLINK_WriteReg(CFBP, 0x00000000)  returns 0x00 (0000ms, 14439ms total)
T2F58 1031:030 JLINK_SetBPEx(Addr = 0x20000000, Type = 0xFFFFFFF2)  returns 0x00000006 (0000ms, 14439ms total)
T2F58 1031:030 JLINK_Go() -- CPU_ReadMem(4 bytes @ 0xE0001000) (0003ms, 14442ms total)
T2F58 1031:033 JLINK_IsHalted()  returns FALSE (0000ms, 14442ms total)
T2F58 1031:038 JLINK_IsHalted()  returns FALSE (0000ms, 14442ms total)
T2F58 1031:040 JLINK_IsHalted()  returns FALSE (0000ms, 14442ms total)
T2F58 1031:042 JLINK_IsHalted()  returns FALSE (0000ms, 14442ms total)
T2F58 1031:044 JLINK_IsHalted() -- CPU_ReadMem(2 bytes @ 0x20000000)  returns TRUE (0004ms, 14446ms total)
T2F58 1031:048 JLINK_ReadReg(R15 (PC))  returns 0x20000000 (0000ms, 14442ms total)
T2F58 1031:048 JLINK_ClrBPEx(BPHandle = 0x00000006)  returns 0x00 (0000ms, 14442ms total)
T2F58 1031:048 JLINK_ReadReg(R0)  returns 0x00000000 (0000ms, 14442ms total)
T2F58 1031:048 JLINK_WriteMem(0x200001BC, 0x0244 Bytes, ...) - Data: 07 01 D1 E9 00 23 CB E7 00 00 00 00 30 00 00 00 ... -- CPU_WriteMem(580 bytes @ 0x200001BC)  returns 0x244 (0008ms, 14450ms total)
T2F58 1031:056 JLINK_WriteMem(0x20000400, 0x01BC Bytes, ...) - Data: 91 01 4F EA 10 1E 4E EA 01 7E 10 EB 0E 00 41 EB ... -- CPU_WriteMem(444 bytes @ 0x20000400)  returns 0x1BC (0005ms, 14455ms total)
T2F58 1031:062 JLINK_WriteReg(R0, 0x08000800)  returns 0x00 (0000ms, 14455ms total)
T2F58 1031:062 JLINK_WriteReg(R1, 0x00000400)  returns 0x00 (0000ms, 14455ms total)
T2F58 1031:062 JLINK_WriteReg(R2, 0x200001BC)  returns 0x00 (0000ms, 14455ms total)
T2F58 1031:062 JLINK_WriteReg(R3, 0x00000000)  returns 0x00 (0000ms, 14455ms total)
T2F58 1031:062 JLINK_WriteReg(R4, 0x00000000)  returns 0x00 (0000ms, 14455ms total)
T2F58 1031:062 JLINK_WriteReg(R5, 0x00000000)  returns 0x00 (0000ms, 14455ms total)
T2F58 1031:062 JLINK_WriteReg(R6, 0x00000000)  returns 0x00 (0000ms, 14455ms total)
T2F58 1031:062 JLINK_WriteReg(R7, 0x00000000)  returns 0x00 (0000ms, 14455ms total)
T2F58 1031:062 JLINK_WriteReg(R8, 0x00000000)  returns 0x00 (0000ms, 14455ms total)
T2F58 1031:062 JLINK_WriteReg(R9, 0x200001B8)  returns 0x00 (0000ms, 14455ms total)
T2F58 1031:062 JLINK_WriteReg(R10, 0x00000000)  returns 0x00 (0000ms, 14455ms total)
T2F58 1031:062 JLINK_WriteReg(R11, 0x00000000)  returns 0x00 (0000ms, 14455ms total)
T2F58 1031:062 JLINK_WriteReg(R12, 0x00000000)  returns 0x00 (0000ms, 14455ms total)
T2F58 1031:062 JLINK_WriteReg(R13 (SP), 0x20001000)  returns 0x00 (0000ms, 14455ms total)
T2F58 1031:062 JLINK_WriteReg(R14, 0x20000001)  returns 0x00 (0000ms, 14455ms total)
T2F58 1031:062 JLINK_WriteReg(R15 (PC), 0x20000138)  returns 0x00 (0000ms, 14455ms total)
T2F58 1031:062 JLINK_WriteReg(XPSR, 0x01000000)  returns 0x00 (0000ms, 14455ms total)
T2F58 1031:062 JLINK_WriteReg(MSP, 0x20001000)  returns 0x00 (0000ms, 14455ms total)
T2F58 1031:062 JLINK_WriteReg(PSP, 0x20001000)  returns 0x00 (0000ms, 14455ms total)
T2F58 1031:062 JLINK_WriteReg(CFBP, 0x00000000)  returns 0x00 (0000ms, 14455ms total)
T2F58 1031:062 JLINK_SetBPEx(Addr = 0x20000000, Type = 0xFFFFFFF2)  returns 0x00000007 (0000ms, 14455ms total)
T2F58 1031:062 JLINK_Go() -- CPU_ReadMem(4 bytes @ 0xE0001000) (0002ms, 14457ms total)
T2F58 1031:065 JLINK_IsHalted()  returns FALSE (0000ms, 14458ms total)
T2F58 1031:067 JLINK_IsHalted()  returns FALSE (0000ms, 14458ms total)
T2F58 1031:069 JLINK_IsHalted()  returns FALSE (0000ms, 14458ms total)
T2F58 1031:071 JLINK_IsHalted()  returns FALSE (0000ms, 14458ms total)
T2F58 1031:073 JLINK_IsHalted()  returns FALSE (0000ms, 14458ms total)
T2F58 1031:075 JLINK_IsHalted()  returns FALSE (0000ms, 14458ms total)
T2F58 1031:077 JLINK_IsHalted() -- CPU_ReadMem(2 bytes @ 0x20000000)  returns TRUE (0004ms, 14462ms total)
T2F58 1031:081 JLINK_ReadReg(R15 (PC))  returns 0x20000000 (0000ms, 14458ms total)
T2F58 1031:081 JLINK_ClrBPEx(BPHandle = 0x00000007)  returns 0x00 (0000ms, 14458ms total)
T2F58 1031:081 JLINK_ReadReg(R0)  returns 0x00000000 (0000ms, 14458ms total)
T2F58 1031:081 JLINK_WriteMem(0x200001BC, 0x0244 Bytes, ...) - Data: 60 47 4F F0 FF 30 ED E7 75 46 00 F0 35 F8 AE 46 ... -- CPU_WriteMem(580 bytes @ 0x200001BC)  returns 0x244 (0007ms, 14465ms total)
T2F58 1031:088 JLINK_WriteMem(0x20000400, 0x01BC Bytes, ...) - Data: 04 01 01 66 00 F0 CC BA 80 6A 00 F0 C8 BA 00 00 ... -- CPU_WriteMem(444 bytes @ 0x20000400)  returns 0x1BC (0007ms, 14472ms total)
T2F58 1031:095 JLINK_WriteReg(R0, 0x08000C00)  returns 0x00 (0000ms, 14472ms total)
T2F58 1031:095 JLINK_WriteReg(R1, 0x00000400)  returns 0x00 (0000ms, 14472ms total)
T2F58 1031:095 JLINK_WriteReg(R2, 0x200001BC)  returns 0x00 (0000ms, 14472ms total)
T2F58 1031:095 JLINK_WriteReg(R3, 0x00000000)  returns 0x00 (0000ms, 14472ms total)
T2F58 1031:095 JLINK_WriteReg(R4, 0x00000000)  returns 0x00 (0000ms, 14472ms total)
T2F58 1031:095 JLINK_WriteReg(R5, 0x00000000)  returns 0x00 (0000ms, 14472ms total)
T2F58 1031:095 JLINK_WriteReg(R6, 0x00000000)  returns 0x00 (0000ms, 14472ms total)
T2F58 1031:095 JLINK_WriteReg(R7, 0x00000000)  returns 0x00 (0000ms, 14472ms total)
T2F58 1031:095 JLINK_WriteReg(R8, 0x00000000)  returns 0x00 (0000ms, 14472ms total)
T2F58 1031:095 JLINK_WriteReg(R9, 0x200001B8)  returns 0x00 (0000ms, 14472ms total)
T2F58 1031:095 JLINK_WriteReg(R10, 0x00000000)  returns 0x00 (0000ms, 14472ms total)
T2F58 1031:095 JLINK_WriteReg(R11, 0x00000000)  returns 0x00 (0000ms, 14472ms total)
T2F58 1031:095 JLINK_WriteReg(R12, 0x00000000)  returns 0x00 (0000ms, 14472ms total)
T2F58 1031:095 JLINK_WriteReg(R13 (SP), 0x20001000)  returns 0x00 (0000ms, 14472ms total)
T2F58 1031:095 JLINK_WriteReg(R14, 0x20000001)  returns 0x00 (0000ms, 14472ms total)
T2F58 1031:095 JLINK_WriteReg(R15 (PC), 0x20000138)  returns 0x00 (0000ms, 14472ms total)
T2F58 1031:095 JLINK_WriteReg(XPSR, 0x01000000)  returns 0x00 (0000ms, 14472ms total)
T2F58 1031:095 JLINK_WriteReg(MSP, 0x20001000)  returns 0x00 (0000ms, 14472ms total)
T2F58 1031:095 JLINK_WriteReg(PSP, 0x20001000)  returns 0x00 (0000ms, 14472ms total)
T2F58 1031:095 JLINK_WriteReg(CFBP, 0x00000000)  returns 0x00 (0000ms, 14472ms total)
T2F58 1031:095 JLINK_SetBPEx(Addr = 0x20000000, Type = 0xFFFFFFF2)  returns 0x00000008 (0000ms, 14472ms total)
T2F58 1031:095 JLINK_Go() -- CPU_ReadMem(4 bytes @ 0xE0001000) (0002ms, 14474ms total)
T2F58 1031:097 JLINK_IsHalted()  returns FALSE (0002ms, 14476ms total)
T2F58 1031:101 JLINK_IsHalted()  returns FALSE (0000ms, 14474ms total)
T2F58 1031:103 JLINK_IsHalted()  returns FALSE (0000ms, 14474ms total)
T2F58 1031:105 JLINK_IsHalted()  returns FALSE (0000ms, 14474ms total)
T2F58 1031:107 JLINK_IsHalted()  returns FALSE (0000ms, 14474ms total)
T2F58 1031:109 JLINK_IsHalted()  returns FALSE (0000ms, 14474ms total)
T2F58 1031:111 JLINK_IsHalted() -- CPU_ReadMem(2 bytes @ 0x20000000)  returns TRUE (0004ms, 14478ms total)
T2F58 1031:115 JLINK_ReadReg(R15 (PC))  returns 0x20000000 (0000ms, 14474ms total)
T2F58 1031:115 JLINK_ClrBPEx(BPHandle = 0x00000008)  returns 0x00 (0000ms, 14474ms total)
T2F58 1031:115 JLINK_ReadReg(R0)  returns 0x00000000 (0000ms, 14474ms total)
T2F58 1031:115 JLINK_WriteMem(0x200001BC, 0x0244 Bytes, ...) - Data: 1F 0E 04 FA 0E F4 CC F8 04 40 04 68 63 60 80 68 ... -- CPU_WriteMem(580 bytes @ 0x200001BC)  returns 0x244 (0007ms, 14481ms total)
T2F58 1031:122 JLINK_WriteMem(0x20000400, 0x01BC Bytes, ...) - Data: 53 D1 9C FA AC F1 00 2B 4F EA 9C 67 B1 FA 81 F2 ... -- CPU_WriteMem(444 bytes @ 0x20000400)  returns 0x1BC (0006ms, 14487ms total)
T2F58 1031:128 JLINK_WriteReg(R0, 0x08001000)  returns 0x00 (0000ms, 14487ms total)
T2F58 1031:128 JLINK_WriteReg(R1, 0x00000400)  returns 0x00 (0000ms, 14487ms total)
T2F58 1031:128 JLINK_WriteReg(R2, 0x200001BC)  returns 0x00 (0000ms, 14487ms total)
T2F58 1031:128 JLINK_WriteReg(R3, 0x00000000)  returns 0x00 (0000ms, 14487ms total)
T2F58 1031:128 JLINK_WriteReg(R4, 0x00000000)  returns 0x00 (0000ms, 14487ms total)
T2F58 1031:128 JLINK_WriteReg(R5, 0x00000000)  returns 0x00 (0000ms, 14487ms total)
T2F58 1031:128 JLINK_WriteReg(R6, 0x00000000)  returns 0x00 (0000ms, 14487ms total)
T2F58 1031:128 JLINK_WriteReg(R7, 0x00000000)  returns 0x00 (0000ms, 14487ms total)
T2F58 1031:128 JLINK_WriteReg(R8, 0x00000000)  returns 0x00 (0000ms, 14487ms total)
T2F58 1031:128 JLINK_WriteReg(R9, 0x200001B8)  returns 0x00 (0000ms, 14487ms total)
T2F58 1031:128 JLINK_WriteReg(R10, 0x00000000)  returns 0x00 (0000ms, 14487ms total)
T2F58 1031:128 JLINK_WriteReg(R11, 0x00000000)  returns 0x00 (0000ms, 14487ms total)
T2F58 1031:128 JLINK_WriteReg(R12, 0x00000000)  returns 0x00 (0000ms, 14487ms total)
T2F58 1031:128 JLINK_WriteReg(R13 (SP), 0x20001000)  returns 0x00 (0000ms, 14487ms total)
T2F58 1031:128 JLINK_WriteReg(R14, 0x20000001)  returns 0x00 (0000ms, 14487ms total)
T2F58 1031:128 JLINK_WriteReg(R15 (PC), 0x20000138)  returns 0x00 (0000ms, 14487ms total)
T2F58 1031:128 JLINK_WriteReg(XPSR, 0x01000000)  returns 0x00 (0000ms, 14487ms total)
T2F58 1031:128 JLINK_WriteReg(MSP, 0x20001000)  returns 0x00 (0000ms, 14487ms total)
T2F58 1031:128 JLINK_WriteReg(PSP, 0x20001000)  returns 0x00 (0000ms, 14487ms total)
T2F58 1031:128 JLINK_WriteReg(CFBP, 0x00000000)  returns 0x00 (0000ms, 14487ms total)
T2F58 1031:128 JLINK_SetBPEx(Addr = 0x20000000, Type = 0xFFFFFFF2)  returns 0x00000009 (0000ms, 14487ms total)
T2F58 1031:128 JLINK_Go() -- CPU_ReadMem(4 bytes @ 0xE0001000) (0003ms, 14490ms total)
T2F58 1031:131 JLINK_IsHalted()  returns FALSE (0000ms, 14490ms total)
T2F58 1031:137 JLINK_IsHalted()  returns FALSE (0000ms, 14490ms total)
T2F58 1031:140 JLINK_IsHalted()  returns FALSE (0000ms, 14490ms total)
T2F58 1031:141 JLINK_IsHalted()  returns FALSE (0000ms, 14490ms total)
T2F58 1031:144 JLINK_IsHalted() -- CPU_ReadMem(2 bytes @ 0x20000000)  returns TRUE (0004ms, 14494ms total)
T2F58 1031:148 JLINK_ReadReg(R15 (PC))  returns 0x20000000 (0000ms, 14490ms total)
T2F58 1031:148 JLINK_ClrBPEx(BPHandle = 0x00000009)  returns 0x00 (0000ms, 14490ms total)
T2F58 1031:148 JLINK_ReadReg(R0)  returns 0x00000000 (0000ms, 14490ms total)
T2F58 1031:148 JLINK_WriteMem(0x200001BC, 0x0244 Bytes, ...) - Data: 84 F8 58 00 20 66 21 68 88 68 80 00 03 D5 88 68 ... -- CPU_WriteMem(580 bytes @ 0x200001BC)  returns 0x244 (0008ms, 14498ms total)
T2F58 1031:156 JLINK_WriteMem(0x20000400, 0x01BC Bytes, ...) - Data: 27 20 80 22 4F F4 80 73 4F F4 80 6C 4F F0 20 0E ... -- CPU_WriteMem(444 bytes @ 0x20000400)  returns 0x1BC (0005ms, 14503ms total)
T2F58 1031:161 JLINK_WriteReg(R0, 0x08001400)  returns 0x00 (0000ms, 14503ms total)
T2F58 1031:161 JLINK_WriteReg(R1, 0x00000400)  returns 0x00 (0000ms, 14503ms total)
T2F58 1031:161 JLINK_WriteReg(R2, 0x200001BC)  returns 0x00 (0000ms, 14503ms total)
T2F58 1031:161 JLINK_WriteReg(R3, 0x00000000)  returns 0x00 (0000ms, 14503ms total)
T2F58 1031:161 JLINK_WriteReg(R4, 0x00000000)  returns 0x00 (0000ms, 14503ms total)
T2F58 1031:161 JLINK_WriteReg(R5, 0x00000000)  returns 0x00 (0000ms, 14503ms total)
T2F58 1031:161 JLINK_WriteReg(R6, 0x00000000)  returns 0x00 (0000ms, 14503ms total)
T2F58 1031:161 JLINK_WriteReg(R7, 0x00000000)  returns 0x00 (0000ms, 14503ms total)
T2F58 1031:161 JLINK_WriteReg(R8, 0x00000000)  returns 0x00 (0000ms, 14503ms total)
T2F58 1031:161 JLINK_WriteReg(R9, 0x200001B8)  returns 0x00 (0000ms, 14503ms total)
T2F58 1031:161 JLINK_WriteReg(R10, 0x00000000)  returns 0x00 (0000ms, 14503ms total)
T2F58 1031:161 JLINK_WriteReg(R11, 0x00000000)  returns 0x00 (0000ms, 14503ms total)
T2F58 1031:161 JLINK_WriteReg(R12, 0x00000000)  returns 0x00 (0000ms, 14503ms total)
T2F58 1031:161 JLINK_WriteReg(R13 (SP), 0x20001000)  returns 0x00 (0000ms, 14503ms total)
T2F58 1031:161 JLINK_WriteReg(R14, 0x20000001)  returns 0x00 (0000ms, 14503ms total)
T2F58 1031:161 JLINK_WriteReg(R15 (PC), 0x20000138)  returns 0x00 (0000ms, 14503ms total)
T2F58 1031:161 JLINK_WriteReg(XPSR, 0x01000000)  returns 0x00 (0000ms, 14503ms total)
T2F58 1031:162 JLINK_WriteReg(MSP, 0x20001000)  returns 0x00 (0000ms, 14503ms total)
T2F58 1031:162 JLINK_WriteReg(PSP, 0x20001000)  returns 0x00 (0000ms, 14503ms total)
T2F58 1031:162 JLINK_WriteReg(CFBP, 0x00000000)  returns 0x00 (0000ms, 14503ms total)
T2F58 1031:162 JLINK_SetBPEx(Addr = 0x20000000, Type = 0xFFFFFFF2)  returns 0x0000000A (0000ms, 14503ms total)
T2F58 1031:162 JLINK_Go() -- CPU_ReadMem(4 bytes @ 0xE0001000) (0002ms, 14505ms total)
T2F58 1031:164 JLINK_IsHalted()  returns FALSE (0001ms, 14506ms total)
T2F58 1031:167 JLINK_IsHalted()  returns FALSE (0000ms, 14505ms total)
T2F58 1031:169 JLINK_IsHalted()  returns FALSE (0000ms, 14505ms total)
T2F58 1031:171 JLINK_IsHalted()  returns FALSE (0000ms, 14505ms total)
T2F58 1031:173 JLINK_IsHalted()  returns FALSE (0000ms, 14505ms total)
T2F58 1031:175 JLINK_IsHalted()  returns FALSE (0000ms, 14505ms total)
T2F58 1031:177 JLINK_IsHalted() -- CPU_ReadMem(2 bytes @ 0x20000000)  returns TRUE (0004ms, 14509ms total)
T2F58 1031:181 JLINK_ReadReg(R15 (PC))  returns 0x20000000 (0000ms, 14505ms total)
T2F58 1031:181 JLINK_ClrBPEx(BPHandle = 0x0000000A)  returns 0x00 (0000ms, 14505ms total)
T2F58 1031:181 JLINK_ReadReg(R0)  returns 0x00000000 (0000ms, 14505ms total)
T2F58 1031:181 JLINK_WriteMem(0x200001BC, 0x0244 Bytes, ...) - Data: 0A 60 D0 E9 10 12 02 F0 1F 03 01 22 02 FA 03 F3 ... -- CPU_WriteMem(580 bytes @ 0x200001BC)  returns 0x244 (0008ms, 14513ms total)
T2F58 1031:189 JLINK_WriteMem(0x20000400, 0x01BC Bytes, ...) - Data: B0 B5 04 46 00 F0 CC F8 05 46 05 48 61 1C 40 68 ... -- CPU_WriteMem(444 bytes @ 0x20000400)  returns 0x1BC (0006ms, 14519ms total)
T2F58 1031:195 JLINK_WriteReg(R0, 0x08001800)  returns 0x00 (0000ms, 14519ms total)
T2F58 1031:195 JLINK_WriteReg(R1, 0x00000400)  returns 0x00 (0000ms, 14519ms total)
T2F58 1031:195 JLINK_WriteReg(R2, 0x200001BC)  returns 0x00 (0000ms, 14519ms total)
T2F58 1031:195 JLINK_WriteReg(R3, 0x00000000)  returns 0x00 (0000ms, 14519ms total)
T2F58 1031:195 JLINK_WriteReg(R4, 0x00000000)  returns 0x00 (0000ms, 14519ms total)
T2F58 1031:195 JLINK_WriteReg(R5, 0x00000000)  returns 0x00 (0000ms, 14519ms total)
T2F58 1031:195 JLINK_WriteReg(R6, 0x00000000)  returns 0x00 (0000ms, 14519ms total)
T2F58 1031:195 JLINK_WriteReg(R7, 0x00000000)  returns 0x00 (0000ms, 14519ms total)
T2F58 1031:195 JLINK_WriteReg(R8, 0x00000000)  returns 0x00 (0000ms, 14519ms total)
T2F58 1031:195 JLINK_WriteReg(R9, 0x200001B8)  returns 0x00 (0000ms, 14519ms total)
T2F58 1031:195 JLINK_WriteReg(R10, 0x00000000)  returns 0x00 (0000ms, 14519ms total)
T2F58 1031:195 JLINK_WriteReg(R11, 0x00000000)  returns 0x00 (0000ms, 14519ms total)
T2F58 1031:195 JLINK_WriteReg(R12, 0x00000000)  returns 0x00 (0000ms, 14519ms total)
T2F58 1031:195 JLINK_WriteReg(R13 (SP), 0x20001000)  returns 0x00 (0000ms, 14519ms total)
T2F58 1031:195 JLINK_WriteReg(R14, 0x20000001)  returns 0x00 (0000ms, 14519ms total)
T2F58 1031:195 JLINK_WriteReg(R15 (PC), 0x20000138)  returns 0x00 (0000ms, 14519ms total)
T2F58 1031:195 JLINK_WriteReg(XPSR, 0x01000000)  returns 0x00 (0000ms, 14519ms total)
T2F58 1031:195 JLINK_WriteReg(MSP, 0x20001000)  returns 0x00 (0000ms, 14519ms total)
T2F58 1031:195 JLINK_WriteReg(PSP, 0x20001000)  returns 0x00 (0000ms, 14519ms total)
T2F58 1031:195 JLINK_WriteReg(CFBP, 0x00000000)  returns 0x00 (0000ms, 14519ms total)
T2F58 1031:195 JLINK_SetBPEx(Addr = 0x20000000, Type = 0xFFFFFFF2)  returns 0x0000000B (0000ms, 14519ms total)
T2F58 1031:195 JLINK_Go() -- CPU_ReadMem(4 bytes @ 0xE0001000) (0004ms, 14523ms total)
T2F58 1031:199 JLINK_IsHalted()  returns FALSE (0000ms, 14523ms total)
T2F58 1031:201 JLINK_IsHalted()  returns FALSE (0000ms, 14523ms total)
T2F58 1031:203 JLINK_IsHalted()  returns FALSE (0000ms, 14523ms total)
T2F58 1031:205 JLINK_IsHalted()  returns FALSE (0000ms, 14523ms total)
T2F58 1031:207 JLINK_IsHalted()  returns FALSE (0000ms, 14523ms total)
T2F58 1031:209 JLINK_IsHalted()  returns FALSE (0000ms, 14523ms total)
T2F58 1031:211 JLINK_IsHalted() -- CPU_ReadMem(2 bytes @ 0x20000000)  returns TRUE (0004ms, 14527ms total)
T2F58 1031:215 JLINK_ReadReg(R15 (PC))  returns 0x20000000 (0000ms, 14523ms total)
T2F58 1031:215 JLINK_ClrBPEx(BPHandle = 0x0000000B)  returns 0x00 (0000ms, 14523ms total)
T2F58 1031:215 JLINK_ReadReg(R0)  returns 0x00000000 (0000ms, 14523ms total)
T2F58 1031:216 JLINK_WriteMem(0x200001BC, 0x0244 Bytes, ...) - Data: 70 47 90 F8 DC 30 02 22 01 2B 21 D0 80 F8 DD 20 ... -- CPU_WriteMem(580 bytes @ 0x200001BC)  returns 0x244 (0007ms, 14530ms total)
T2F58 1031:223 JLINK_WriteMem(0x20000400, 0x01BC Bytes, ...) - Data: D1 F8 84 20 D2 07 1C BF D1 F8 8C 20 5F EA C2 72 ... -- CPU_WriteMem(444 bytes @ 0x20000400)  returns 0x1BC (0006ms, 14536ms total)
T2F58 1031:229 JLINK_WriteReg(R0, 0x08001C00)  returns 0x00 (0000ms, 14536ms total)
T2F58 1031:229 JLINK_WriteReg(R1, 0x00000400)  returns 0x00 (0000ms, 14536ms total)
T2F58 1031:229 JLINK_WriteReg(R2, 0x200001BC)  returns 0x00 (0000ms, 14536ms total)
T2F58 1031:229 JLINK_WriteReg(R3, 0x00000000)  returns 0x00 (0000ms, 14536ms total)
T2F58 1031:229 JLINK_WriteReg(R4, 0x00000000)  returns 0x00 (0000ms, 14536ms total)
T2F58 1031:229 JLINK_WriteReg(R5, 0x00000000)  returns 0x00 (0000ms, 14536ms total)
T2F58 1031:229 JLINK_WriteReg(R6, 0x00000000)  returns 0x00 (0000ms, 14536ms total)
T2F58 1031:229 JLINK_WriteReg(R7, 0x00000000)  returns 0x00 (0000ms, 14536ms total)
T2F58 1031:229 JLINK_WriteReg(R8, 0x00000000)  returns 0x00 (0000ms, 14536ms total)
T2F58 1031:229 JLINK_WriteReg(R9, 0x200001B8)  returns 0x00 (0000ms, 14536ms total)
T2F58 1031:229 JLINK_WriteReg(R10, 0x00000000)  returns 0x00 (0000ms, 14536ms total)
T2F58 1031:229 JLINK_WriteReg(R11, 0x00000000)  returns 0x00 (0000ms, 14536ms total)
T2F58 1031:229 JLINK_WriteReg(R12, 0x00000000)  returns 0x00 (0000ms, 14536ms total)
T2F58 1031:229 JLINK_WriteReg(R13 (SP), 0x20001000)  returns 0x00 (0000ms, 14536ms total)
T2F58 1031:229 JLINK_WriteReg(R14, 0x20000001)  returns 0x00 (0000ms, 14536ms total)
T2F58 1031:229 JLINK_WriteReg(R15 (PC), 0x20000138)  returns 0x00 (0000ms, 14536ms total)
T2F58 1031:229 JLINK_WriteReg(XPSR, 0x01000000)  returns 0x00 (0000ms, 14536ms total)
T2F58 1031:229 JLINK_WriteReg(MSP, 0x20001000)  returns 0x00 (0000ms, 14536ms total)
T2F58 1031:229 JLINK_WriteReg(PSP, 0x20001000)  returns 0x00 (0000ms, 14536ms total)
T2F58 1031:229 JLINK_WriteReg(CFBP, 0x00000000)  returns 0x00 (0000ms, 14536ms total)
T2F58 1031:229 JLINK_SetBPEx(Addr = 0x20000000, Type = 0xFFFFFFF2)  returns 0x0000000C (0000ms, 14536ms total)
T2F58 1031:229 JLINK_Go() -- CPU_ReadMem(4 bytes @ 0xE0001000) (0003ms, 14539ms total)
T2F58 1031:232 JLINK_IsHalted()  returns FALSE (0000ms, 14539ms total)
T2F58 1031:234 JLINK_IsHalted()  returns FALSE (0000ms, 14539ms total)
T2F58 1031:238 JLINK_IsHalted()  returns FALSE (0000ms, 14539ms total)
T2F58 1031:240 JLINK_IsHalted()  returns FALSE (0000ms, 14539ms total)
T2F58 1031:242 JLINK_IsHalted()  returns FALSE (0000ms, 14539ms total)
T2F58 1031:244 JLINK_IsHalted() -- CPU_ReadMem(2 bytes @ 0x20000000)  returns TRUE (0004ms, 14543ms total)
T2F58 1031:248 JLINK_ReadReg(R15 (PC))  returns 0x20000000 (0000ms, 14539ms total)
T2F58 1031:248 JLINK_ClrBPEx(BPHandle = 0x0000000C)  returns 0x00 (0000ms, 14539ms total)
T2F58 1031:248 JLINK_ReadReg(R0)  returns 0x00000000 (0000ms, 14539ms total)
T2F58 1031:248 JLINK_WriteMem(0x200001BC, 0x0244 Bytes, ...) - Data: C0 E6 4F F4 80 31 C0 F8 8C 13 00 20 84 F8 DC 00 ... -- CPU_WriteMem(580 bytes @ 0x200001BC)  returns 0x244 (0007ms, 14546ms total)
T2F58 1031:255 JLINK_WriteMem(0x20000400, 0x01BC Bytes, ...) - Data: 80 61 01 60 00 21 00 68 00 F0 80 60 01 90 01 98 ... -- CPU_WriteMem(444 bytes @ 0x20000400)  returns 0x1BC (0007ms, 14553ms total)
T2F58 1031:262 JLINK_WriteReg(R0, 0x08002000)  returns 0x00 (0000ms, 14553ms total)
T2F58 1031:262 JLINK_WriteReg(R1, 0x00000400)  returns 0x00 (0000ms, 14553ms total)
T2F58 1031:262 JLINK_WriteReg(R2, 0x200001BC)  returns 0x00 (0000ms, 14553ms total)
T2F58 1031:262 JLINK_WriteReg(R3, 0x00000000)  returns 0x00 (0000ms, 14553ms total)
T2F58 1031:262 JLINK_WriteReg(R4, 0x00000000)  returns 0x00 (0000ms, 14553ms total)
T2F58 1031:262 JLINK_WriteReg(R5, 0x00000000)  returns 0x00 (0000ms, 14553ms total)
T2F58 1031:262 JLINK_WriteReg(R6, 0x00000000)  returns 0x00 (0000ms, 14553ms total)
T2F58 1031:262 JLINK_WriteReg(R7, 0x00000000)  returns 0x00 (0000ms, 14553ms total)
T2F58 1031:262 JLINK_WriteReg(R8, 0x00000000)  returns 0x00 (0000ms, 14553ms total)
T2F58 1031:262 JLINK_WriteReg(R9, 0x200001B8)  returns 0x00 (0000ms, 14553ms total)
T2F58 1031:262 JLINK_WriteReg(R10, 0x00000000)  returns 0x00 (0000ms, 14553ms total)
T2F58 1031:262 JLINK_WriteReg(R11, 0x00000000)  returns 0x00 (0000ms, 14553ms total)
T2F58 1031:262 JLINK_WriteReg(R12, 0x00000000)  returns 0x00 (0000ms, 14553ms total)
T2F58 1031:262 JLINK_WriteReg(R13 (SP), 0x20001000)  returns 0x00 (0000ms, 14553ms total)
T2F58 1031:262 JLINK_WriteReg(R14, 0x20000001)  returns 0x00 (0000ms, 14553ms total)
T2F58 1031:262 JLINK_WriteReg(R15 (PC), 0x20000138)  returns 0x00 (0000ms, 14553ms total)
T2F58 1031:262 JLINK_WriteReg(XPSR, 0x01000000)  returns 0x00 (0000ms, 14553ms total)
T2F58 1031:262 JLINK_WriteReg(MSP, 0x20001000)  returns 0x00 (0000ms, 14553ms total)
T2F58 1031:262 JLINK_WriteReg(PSP, 0x20001000)  returns 0x00 (0000ms, 14553ms total)
T2F58 1031:262 JLINK_WriteReg(CFBP, 0x00000000)  returns 0x00 (0000ms, 14553ms total)
T2F58 1031:262 JLINK_SetBPEx(Addr = 0x20000000, Type = 0xFFFFFFF2)  returns 0x0000000D (0000ms, 14553ms total)
T2F58 1031:262 JLINK_Go() -- CPU_ReadMem(4 bytes @ 0xE0001000) (0003ms, 14556ms total)
T2F58 1031:265 JLINK_IsHalted()  returns FALSE (0000ms, 14556ms total)
T2F58 1031:267 JLINK_IsHalted()  returns FALSE (0000ms, 14556ms total)
T2F58 1031:269 JLINK_IsHalted()  returns FALSE (0000ms, 14556ms total)
T2F58 1031:271 JLINK_IsHalted()  returns FALSE (0000ms, 14556ms total)
T2F58 1031:273 JLINK_IsHalted()  returns FALSE (0000ms, 14556ms total)
T2F58 1031:275 JLINK_IsHalted()  returns FALSE (0000ms, 14556ms total)
T2F58 1031:277 JLINK_IsHalted() -- CPU_ReadMem(2 bytes @ 0x20000000)  returns TRUE (0003ms, 14559ms total)
T2F58 1031:280 JLINK_ReadReg(R15 (PC))  returns 0x20000000 (0000ms, 14556ms total)
T2F58 1031:280 JLINK_ClrBPEx(BPHandle = 0x0000000D)  returns 0x00 (0001ms, 14557ms total)
T2F58 1031:281 JLINK_ReadReg(R0)  returns 0x00000000 (0000ms, 14557ms total)
T2F58 1031:281 JLINK_WriteMem(0x200001BC, 0x0244 Bytes, ...) - Data: 80 F8 DD 10 49 E0 01 68 1A 68 4A 62 45 E0 01 68 ... -- CPU_WriteMem(580 bytes @ 0x200001BC)  returns 0x244 (0007ms, 14564ms total)
T2F58 1031:288 JLINK_WriteMem(0x20000400, 0x01BC Bytes, ...) - Data: 05 F1 20 06 10 E0 46 F0 80 06 A9 E7 46 F0 40 06 ... -- CPU_WriteMem(444 bytes @ 0x20000400)  returns 0x1BC (0006ms, 14570ms total)
T2F58 1031:294 JLINK_WriteReg(R0, 0x08002400)  returns 0x00 (0001ms, 14571ms total)
T2F58 1031:295 JLINK_WriteReg(R1, 0x00000400)  returns 0x00 (0000ms, 14571ms total)
T2F58 1031:295 JLINK_WriteReg(R2, 0x200001BC)  returns 0x00 (0000ms, 14571ms total)
T2F58 1031:295 JLINK_WriteReg(R3, 0x00000000)  returns 0x00 (0000ms, 14571ms total)
T2F58 1031:295 JLINK_WriteReg(R4, 0x00000000)  returns 0x00 (0000ms, 14571ms total)
T2F58 1031:295 JLINK_WriteReg(R5, 0x00000000)  returns 0x00 (0000ms, 14571ms total)
T2F58 1031:295 JLINK_WriteReg(R6, 0x00000000)  returns 0x00 (0000ms, 14571ms total)
T2F58 1031:295 JLINK_WriteReg(R7, 0x00000000)  returns 0x00 (0000ms, 14571ms total)
T2F58 1031:295 JLINK_WriteReg(R8, 0x00000000)  returns 0x00 (0000ms, 14571ms total)
T2F58 1031:295 JLINK_WriteReg(R9, 0x200001B8)  returns 0x00 (0000ms, 14571ms total)
T2F58 1031:295 JLINK_WriteReg(R10, 0x00000000)  returns 0x00 (0000ms, 14571ms total)
T2F58 1031:295 JLINK_WriteReg(R11, 0x00000000)  returns 0x00 (0000ms, 14571ms total)
T2F58 1031:295 JLINK_WriteReg(R12, 0x00000000)  returns 0x00 (0000ms, 14571ms total)
T2F58 1031:295 JLINK_WriteReg(R13 (SP), 0x20001000)  returns 0x00 (0000ms, 14571ms total)
T2F58 1031:295 JLINK_WriteReg(R14, 0x20000001)  returns 0x00 (0000ms, 14571ms total)
T2F58 1031:295 JLINK_WriteReg(R15 (PC), 0x20000138)  returns 0x00 (0000ms, 14571ms total)
T2F58 1031:295 JLINK_WriteReg(XPSR, 0x01000000)  returns 0x00 (0000ms, 14571ms total)
T2F58 1031:295 JLINK_WriteReg(MSP, 0x20001000)  returns 0x00 (0000ms, 14571ms total)
T2F58 1031:295 JLINK_WriteReg(PSP, 0x20001000)  returns 0x00 (0000ms, 14571ms total)
T2F58 1031:295 JLINK_WriteReg(CFBP, 0x00000000)  returns 0x00 (0000ms, 14571ms total)
T2F58 1031:295 JLINK_SetBPEx(Addr = 0x20000000, Type = 0xFFFFFFF2)  returns 0x0000000E (0000ms, 14571ms total)
T2F58 1031:295 JLINK_Go() -- CPU_ReadMem(4 bytes @ 0xE0001000) (0002ms, 14573ms total)
T2F58 1031:297 JLINK_IsHalted()  returns FALSE (0001ms, 14574ms total)
T2F58 1031:301 JLINK_IsHalted()  returns FALSE (0000ms, 14573ms total)
T2F58 1031:303 JLINK_IsHalted()  returns FALSE (0000ms, 14573ms total)
T2F58 1031:305 JLINK_IsHalted()  returns FALSE (0000ms, 14573ms total)
T2F58 1031:307 JLINK_IsHalted()  returns FALSE (0000ms, 14573ms total)
T2F58 1031:309 JLINK_IsHalted() -- CPU_ReadMem(2 bytes @ 0x20000000)  returns TRUE (0003ms, 14576ms total)
T2F58 1031:312 JLINK_ReadReg(R15 (PC))  returns 0x20000000 (0000ms, 14573ms total)
T2F58 1031:312 JLINK_ClrBPEx(BPHandle = 0x0000000E)  returns 0x00 (0000ms, 14573ms total)
T2F58 1031:312 JLINK_ReadReg(R0)  returns 0x00000000 (0000ms, 14573ms total)
T2F58 1031:313 JLINK_WriteMem(0x200001BC, 0x0244 Bytes, ...) - Data: 40 37 06 EA 05 15 45 EA 0E 06 23 F4 00 33 37 43 ... -- CPU_WriteMem(580 bytes @ 0x200001BC)  returns 0x244 (0007ms, 14581ms total)
T2F58 1031:320 JLINK_WriteMem(0x20000400, 0x01BC Bytes, ...) - Data: 01 08 40 F0 80 50 F0 64 F0 6C 00 F0 80 50 01 90 ... -- CPU_WriteMem(444 bytes @ 0x20000400)  returns 0x1BC (0006ms, 14587ms total)
T2F58 1031:326 JLINK_WriteReg(R0, 0x08002800)  returns 0x00 (0000ms, 14587ms total)
T2F58 1031:326 JLINK_WriteReg(R1, 0x00000400)  returns 0x00 (0000ms, 14587ms total)
T2F58 1031:326 JLINK_WriteReg(R2, 0x200001BC)  returns 0x00 (0000ms, 14587ms total)
